T2374 1669:135 SEGGER J-Link V5.10u Log File (0000ms, 18719ms total)
T2374 1669:135 DLL Compiled: Mar 17 2016 18:56:47 (0000ms, 18719ms total)
T2374 1669:135 Logging started @ 2025-08-17 11:51 (0000ms, 18719ms total)
T2374 1669:135 JLINK_SetWarnOutHandler(...) (0000ms, 18719ms total)
T2374 1669:135 JLINK_OpenEx(...)
Firmware: J-Link ARM V8 compiled Nov 28 2014 13:44:46
Hardware: V8.00
S/N: 788594195
Feature(s): RDI,FlashDL,FlashBP,JFlash,GDBDevice "STM32F103RC" selected.  returns O.K. (0269ms, 18988ms total)
T2374 1669:404 JLINK_GetEmuCaps()  returns 0xB9FF7BBF (0000ms, 18988ms total)
T2374 1669:404 JLINK_TIF_GetAvailable(...) (0000ms, 18988ms total)
T2374 1669:405 JLINK_SetErrorOutHandler(...) (0000ms, 18988ms total)
T2374 1669:405 JLINK_ExecCommand("ProjectFile = "E:\ARM\GD32\Key-Ex-3\Project\JLinkSettings.ini"", ...)Device "STM32F103RC" selected.  returns 0x00 (0001ms, 18989ms total)
T2374 1669:407 JLINK_ExecCommand("Device = GD32F350RB", ...)Device "STM32F103RC" selected.  returns 0x00 (0001ms, 18990ms total)
T2374 1669:408 JLINK_ExecCommand("DisableConnectionTimeout", ...)  returns 0x01 (0000ms, 18990ms total)
T2374 1669:408 JLINK_GetHardwareVersion()  returns 0x13880 (0000ms, 18990ms total)
T2374 1669:408 JLINK_GetDLLVersion()  returns 51021 (0000ms, 18990ms total)
T2374 1669:408 JLINK_GetFirmwareString(...) (0000ms, 18990ms total)
T2374 1669:408 JLINK_GetDLLVersion()  returns 51021 (0000ms, 18990ms total)
T2374 1669:408 JLINK_GetCompileDateTime() (0000ms, 18990ms total)
T2374 1669:408 JLINK_GetFirmwareString(...) (0000ms, 18990ms total)
T2374 1669:408 JLINK_GetHardwareVersion()  returns 0x13880 (0000ms, 18990ms total)
T2374 1669:409 JLINK_TIF_Select(JLINKARM_TIF_SWD)  returns 0x00 (0001ms, 18991ms total)
T2374 1669:410 JLINK_SetSpeed(5000) (0000ms, 18991ms total)
T2374 1669:410 JLINK_GetId() >0x108 TIF>Found SWD-DP with ID 0x2BA01477 >0x0D TIF> >0x28 TIF> >0x0D TIF> >0x28 TIF> >0x0D TIF> >0x28 TIF> >0x0D TIF> >0x28 TIF> >0x0D TIF> >0x21 TIF> >0x0D TIF> >0x28 TIF> >0x0D TIF> >0x28 TIF> >0x0D TIF> >0x28 TIF> >0x0D TIF> >0x21 TIF> >0x0D TIF> >0x21 TIF> >0x0D TIF> >0x28 TIF> >0x0D TIF> >0x21 TIF> >0x0D TIF> >0x21 TIF> >0x0D TIF> >0x28 TIF> >0x0D TIF> >0x21 TIF> >0x0D TIF> >0x21 TIF> >0x0D TIF> >0x28 TIF> >0x0D TIF> >0x21 TIF> >0x0D TIF> >0x21 TIF> >0x0D TIF>
 >0x28 TIF> >0x0D TIF> >0x21 TIF> >0x0D TIF> >0x21 TIF> >0x0D TIF> >0x28 TIF> >0x0D TIF> >0x21 TIF> >0x0D TIF> >0x21 TIF> >0x108 TIF>Found SWD-DP with ID 0x2BA01477 >0x0D TIF> >0x28 TIF> >0x0D TIF> >0x28 TIF> >0x0D TIF> >0x28 TIF> >0x0D TIF> >0x28 TIF> >0x0D TIF> >0x21 TIF> >0x0D TIF> >0x28 TIF> >0x0D TIF> >0x28 TIF> >0x0D TIF> >0x21 TIF> >0x0D TIF> >0x21 TIF> >0x0D TIF> >0x21 TIF> >0x0D TIF> >0x28 TIF> >0x0D TIF> >0x28 TIF> >0x0D TIF> >0x28 TIF> >0x0D TIF> >0x21 TIF> >0x0D TIF> >0x21 TIF> >0x0D TIF>
 >0x28 TIF> >0x0D TIF> >0x21 TIF> >0x0D TIF> >0x21 TIF>Found Cortex-M4 r0p1, Little endian.Identified core does not match configuration. (Found: Cortex-M4, Configured: Cortex-M3) -- CPU_ReadMem(4 bytes @ 0xE000EDF0) -- CPU_ReadMem(4 bytes @ 0xE0002000)FPUnit: 6 code (BP) slots and 2 literal slots -- CPU_ReadMem(4 bytes @ 0xE000EDFC) -- CPU_ReadMem(4 bytes @ 0xE0001000) -- CPU_WriteMem(4 bytes @ 0xE0001000) -- CPU_ReadMem(4 bytes @ 0xE000ED88) -- CPU_WriteMem(4 bytes @ 0xE000ED88)
 -- CPU_ReadMem(4 bytes @ 0xE000ED88) -- CPU_WriteMem(4 bytes @ 0xE000ED88)CoreSight components:ROMTbl 0 @ E00FF000 -- CPU_ReadMem(16 bytes @ 0xE00FF000) -- CPU_ReadMem(16 bytes @ 0xE000EFF0) -- CPU_ReadMem(16 bytes @ 0xE000EFE0)ROMTbl 0 [0]: FFF0F000, CID: B105E00D, PID: 000BB00C SCS -- CPU_ReadMem(16 bytes @ 0xE0001FF0) -- CPU_ReadMem(16 bytes @ 0xE0001FE0)ROMTbl 0 [1]: FFF02000, CID: B105E00D, PID: 003BB002 DWT -- CPU_ReadMem(16 bytes @ 0xE0002FF0) -- CPU_ReadMem(16 bytes @ 0xE0002FE0)
ROMTbl 0 [2]: FFF03000, CID: B105E00D, PID: 002BB003 FPB -- CPU_ReadMem(16 bytes @ 0xE0000FF0) -- CPU_ReadMem(16 bytes @ 0xE0000FE0)ROMTbl 0 [3]: FFF01000, CID: B105E00D, PID: 003BB001 ITM -- CPU_ReadMem(16 bytes @ 0xE00FF010) -- CPU_ReadMem(16 bytes @ 0xE0040FF0) -- CPU_ReadMem(16 bytes @ 0xE0040FE0)ROMTbl 0 [4]: FFF41000, CID: B105900D, PID: 000BB9A1 TPIU >0x0D TIF> >0x21 TIF>  returns 0x2BA01477 (0041ms, 19032ms total)
T2374 1669:451 JLINK_GetDLLVersion()  returns 51021 (0000ms, 19032ms total)
T2374 1669:451 JLINK_CORE_GetFound()  returns 0xE0000FF (0000ms, 19032ms total)
T2374 1669:451 JLINK_GetDebugInfo(0x100) -- Value=0xE00FF000  returns 0x00 (0000ms, 19032ms total)
T2374 1669:451 JLINK_GetDebugInfo(0x100) -- Value=0xE00FF000  returns 0x00 (0001ms, 19033ms total)
T2374 1669:452 JLINK_GetDebugInfo(0x101) -- Value=0x00000000  returns 0x00 (0000ms, 19033ms total)
T2374 1669:452 JLINK_ReadMemEx(0xE0041FF0, 0x0010 Bytes, ..., AccessWidth = 33554436) -- CPU is running -- CPU_ReadMem(16 bytes @ 0xE0041FF0) - Data: 00 00 00 00 00 00 00 00 00 00 00 00 00 00 00 00  returns 0x10 (0000ms, 19033ms total)
T2374 1669:452 JLINK_GetDebugInfo(0x102) -- Value=0x00000000  returns 0x00 (0000ms, 19033ms total)
T2374 1669:452 JLINK_GetDebugInfo(0x103) -- Value=0xE0040000  returns 0x00 (0000ms, 19033ms total)
T2374 1669:452 JLINK_GetDebugInfo(0x104) -- Value=0xE0000000  returns 0x00 (0000ms, 19033ms total)
T2374 1669:452 JLINK_GetDebugInfo(0x105) -- Value=0xE0001000  returns 0x00 (0000ms, 19033ms total)
T2374 1669:452 JLINK_GetDebugInfo(0x106) -- Value=0xE0002000  returns 0x00 (0000ms, 19033ms total)
T2374 1669:452 JLINK_GetDebugInfo(0x107) -- Value=0xE000E000  returns 0x00 (0000ms, 19033ms total)
T2374 1669:452 JLINK_GetDebugInfo(0x10C) -- Value=0xE000EDF0  returns 0x00 (0000ms, 19033ms total)
T2374 1669:452 JLINK_GetDebugInfo(0x01)  returns 0xFFFFFFFF (0000ms, 19033ms total)
T2374 1669:452 JLINK_GetDeviceFamily()  returns 14 (0000ms, 19033ms total)
T2374 1669:452 JLINK_ReadMemU32(0xE000ED00, 0x0001 Items, ...) -- CPU is running -- CPU_ReadMem(4 bytes @ 0xE000ED00) - Data: 41 C2 0F 41  returns 0x01 (0001ms, 19034ms total)
T2374 1669:453 JLINK_GetDebugInfo(0x10F)  returns 0xFFFFFFFF (0000ms, 19034ms total)
T2374 1669:453 JLINK_SetResetType(JLINKARM_RESET_TYPE_NORMAL)  returns JLINKARM_RESET_TYPE_NORMAL (0000ms, 19034ms total)
T2374 1669:453 JLINK_Reset() -- CPU is running -- CPU_WriteMem(4 bytes @ 0xE000EDF0) -- CPU is running -- CPU_WriteMem(4 bytes @ 0xE000EDFC) >0x35 TIF> -- CPU is running -- CPU_WriteMem(4 bytes @ 0xE000ED0C) -- CPU is running -- CPU_ReadMem(4 bytes @ 0xE000EDF0) -- CPU is running -- CPU_ReadMem(4 bytes @ 0xE000EDF0) -- CPU is running -- CPU_WriteMem(4 bytes @ 0xE000EDF0) -- CPU is running -- CPU_WriteMem(4 bytes @ 0xE000EDFC) -- CPU is running -- CPU_ReadMem(4 bytes @ 0xE000EDF0)
 -- CPU_WriteMem(4 bytes @ 0xE0002000) -- CPU_ReadMem(4 bytes @ 0xE000EDFC) -- CPU_ReadMem(4 bytes @ 0xE0001000) (0016ms, 19050ms total)
T2374 1669:469 JLINK_ReadReg(R15 (PC))  returns 0x08000164 (0000ms, 19050ms total)
T2374 1669:469 JLINK_ReadReg(XPSR)  returns 0x01000000 (0000ms, 19050ms total)
T2374 1669:469 JLINK_Halt()  returns 0x00 (0000ms, 19050ms total)
T2374 1669:469 JLINK_ReadMemU32(0xE000EDF0, 0x0001 Items, ...) -- CPU_ReadMem(4 bytes @ 0xE000EDF0) - Data: 03 00 03 00  returns 0x01 (0000ms, 19050ms total)
T2374 1669:469 JLINK_WriteU32(0xE000EDF0, 0xA05F0003) -- CPU_WriteMem(4 bytes @ 0xE000EDF0)  returns 0x00 (0000ms, 19050ms total)
T2374 1669:469 JLINK_WriteU32(0xE000EDFC, 0x01000000) -- CPU_WriteMem(4 bytes @ 0xE000EDFC)  returns 0x00 (0001ms, 19051ms total)
T2374 1669:470 JLINK_GetHWStatus(...)  returns 0x00 (0000ms, 19051ms total)
T2374 1669:470 JLINK_GetNumBPUnits(Type = 0xFFFFFF00)  returns 0x06 (0000ms, 19051ms total)
T2374 1669:470 JLINK_GetNumBPUnits(Type = 0xF0)  returns 0x2000 (0000ms, 19051ms total)
T2374 1669:470 JLINK_GetNumWPUnits()  returns 0x04 (0000ms, 19051ms total)
T2374 1669:471 JLINK_GetSpeed()  returns 0xFA0 (0000ms, 19051ms total)
T2374 1669:471 JLINK_ReadMemU32(0xE000E004, 0x0001 Items, ...) -- CPU_ReadMem(4 bytes @ 0xE000E004) - Data: 02 00 00 00  returns 0x01 (0000ms, 19051ms total)
T2374 1669:471 JLINK_ReadMemU32(0xE000E004, 0x0001 Items, ...) -- CPU_ReadMem(4 bytes @ 0xE000E004) - Data: 02 00 00 00  returns 0x01 (0001ms, 19052ms total)
T2374 1669:472 JLINK_WriteMemEx(0xE0001000, 0x001C Bytes, ..., AccessWidth = 33554436) - Data: 01 00 00 00 00 00 00 00 00 00 00 00 00 00 00 00 ... -- CPU_WriteMem(28 bytes @ 0xE0001000)  returns 0x1C (0000ms, 19052ms total)
T2374 1669:472 JLINK_ReadReg(R15 (PC))  returns 0x08000164 (0000ms, 19052ms total)
T2374 1669:472 JLINK_ReadReg(XPSR)  returns 0x01000000 (0000ms, 19052ms total)
T2374 1669:477 JLINK_ReadMemEx(0xE0001004, 0x0004 Bytes, ..., AccessWidth = 33554432)Mis-aligned memory read: Address: 0xE0001004, NumBytes: 4, Alignment: 2 (Halfword-aligned)
  ***** Mis-aligned memory read: Address: 0xE0001004, NumBytes: 4, Alignment: 2 (Halfword-aligned) -- CPU_ReadMem(4 bytes @ 0xE0001004) - Data: 00 00 00 00  returns 0x04 (0002ms, 19054ms total)
T2374 1669:546 JLINK_SetResetType(JLINKARM_RESET_TYPE_NORMAL)  returns JLINKARM_RESET_TYPE_NORMAL (0000ms, 19054ms total)
T2374 1669:546 JLINK_Reset() -- CPU_WriteMem(4 bytes @ 0xE000EDF0) -- CPU_WriteMem(4 bytes @ 0xE000EDFC) >0x35 TIF> -- CPU_WriteMem(4 bytes @ 0xE000ED0C) -- CPU_ReadMem(4 bytes @ 0xE000EDF0) -- CPU_ReadMem(4 bytes @ 0xE000EDF0) -- CPU_WriteMem(4 bytes @ 0xE000EDF0) -- CPU_WriteMem(4 bytes @ 0xE000EDFC) -- CPU is running -- CPU_ReadMem(4 bytes @ 0xE000EDF0) -- CPU_WriteMem(4 bytes @ 0xE0002000) -- CPU_ReadMem(4 bytes @ 0xE000EDFC) -- CPU_ReadMem(4 bytes @ 0xE0001000) (0019ms, 19073ms total)
T2374 1669:565 JLINK_ReadReg(R15 (PC))  returns 0x08000164 (0000ms, 19073ms total)
T2374 1669:565 JLINK_ReadReg(XPSR)  returns 0x01000000 (0000ms, 19073ms total)
T2374 1669:566 JLINK_ReadMemEx(0x08000164, 0x003C Bytes, ..., AccessWidth = 33554432)Mis-aligned memory read: Address: 0x08000164, NumBytes: 60, Alignment: 2 (Halfword-aligned)
  ***** Mis-aligned memory read: Address: 0x08000164, NumBytes: 60, Alignment: 2 (Halfword-aligned) -- CPU_ReadMem(128 bytes @ 0x08000140) -- Updating C cache (128 bytes @ 0x08000140) -- Read from C cache (60 bytes @ 0x08000164) - Data: 06 48 80 47 06 48 00 47 FE E7 FE E7 FE E7 FE E7 ...  returns 0x3C (0002ms, 19075ms total)
T2374 1669:568 JLINK_ReadMemEx(0x08000164, 0x0002 Bytes, ..., AccessWidth = 33554432)Mis-aligned memory read: Address: 0x08000164, NumBytes: 2, Alignment: 2 (Halfword-aligned)
  ***** Mis-aligned memory read: Address: 0x08000164, NumBytes: 2, Alignment: 2 (Halfword-aligned) -- Read from C cache (2 bytes @ 0x08000164) - Data: 06 48  returns 0x02 (0000ms, 19075ms total)
T2374 1669:568 JLINK_ReadMemEx(0x08000166, 0x0002 Bytes, ..., AccessWidth = 33554432)Mis-aligned memory read: Address: 0x08000166, NumBytes: 2, Alignment: 2 (Halfword-aligned)
  ***** Mis-aligned memory read: Address: 0x08000166, NumBytes: 2, Alignment: 2 (Halfword-aligned) -- Read from C cache (2 bytes @ 0x08000166) - Data: 80 47  returns 0x02 (0000ms, 19075ms total)
T2374 1669:736 JLINK_ReadMemEx(0x48000800, 0x0014 Bytes, ..., AccessWidth = 33554436) -- CPU_ReadMem(20 bytes @ 0x48000800) - Data: 00 00 00 00 00 00 00 00 00 00 00 00 00 00 00 00 ...  returns 0x14 (0001ms, 19076ms total)
T2374 1669:737 JLINK_ReadMemEx(0x48000814, 0x0004 Bytes, ..., AccessWidth = 33554436) -- CPU_ReadMem(4 bytes @ 0x48000814) - Data: 00 00 00 00  returns 0x04 (0000ms, 19076ms total)
T2374 1669:737 JLINK_ReadMemEx(0x48000820, 0x0004 Bytes, ..., AccessWidth = 33554436) -- CPU_ReadMem(4 bytes @ 0x48000820) - Data: 00 00 00 00  returns 0x04 (0001ms, 19077ms total)
T2374 1669:738 JLINK_ReadMemEx(0x48000824, 0x0004 Bytes, ..., AccessWidth = 33554436) -- CPU_ReadMem(4 bytes @ 0x48000824) - Data: 00 00 00 00  returns 0x04 (0000ms, 19077ms total)
T2374 1669:738 JLINK_ReadMemEx(0x4800083C, 0x0004 Bytes, ..., AccessWidth = 33554436) -- CPU_ReadMem(4 bytes @ 0x4800083C) - Data: 00 00 00 00  returns 0x04 (0001ms, 19078ms total)
T2374 1669:812 JLINK_ReadMemEx(0x40000000, 0x0010 Bytes, ..., AccessWidth = 33554436) -- CPU_ReadMem(16 bytes @ 0x40000000) - Data: 00 00 00 00 00 00 00 00 00 00 00 00 00 00 00 00  returns 0x10 (0001ms, 19079ms total)
T2374 1669:813 JLINK_ReadMemEx(0x40000010, 0x0004 Bytes, ..., AccessWidth = 33554436) -- CPU_ReadMem(4 bytes @ 0x40000010) - Data: 00 00 00 00  returns 0x04 (0001ms, 19080ms total)
T2374 1669:814 JLINK_ReadMemEx(0x40000018, 0x0014 Bytes, ..., AccessWidth = 33554436) -- CPU_ReadMem(20 bytes @ 0x40000018) - Data: 00 00 00 00 00 00 00 00 00 00 00 00 00 00 00 00 ...  returns 0x14 (0000ms, 19080ms total)
T2374 1669:814 JLINK_ReadMemEx(0x4000002C, 0x0004 Bytes, ..., AccessWidth = 33554436) -- CPU_ReadMem(4 bytes @ 0x4000002C) - Data: 00 00 00 00  returns 0x04 (0000ms, 19080ms total)
T2374 1669:814 JLINK_ReadMemEx(0x40000034, 0x000C Bytes, ..., AccessWidth = 33554436) -- CPU_ReadMem(12 bytes @ 0x40000034) - Data: 00 00 00 00 00 00 00 00 00 00 00 00  returns 0x0C (0001ms, 19081ms total)
T2374 1669:815 JLINK_ReadMemEx(0x40000040, 0x0004 Bytes, ..., AccessWidth = 33554436) -- CPU_ReadMem(4 bytes @ 0x40000040) - Data: 00 00 00 00  returns 0x04 (0000ms, 19081ms total)
T2374 1669:815 JLINK_ReadMemEx(0x40000048, 0x0004 Bytes, ..., AccessWidth = 33554436) -- CPU_ReadMem(4 bytes @ 0x40000048) - Data: 00 00 00 00  returns 0x04 (0001ms, 19082ms total)
T2374 1669:816 JLINK_ReadMemEx(0x4000004C, 0x0004 Bytes, ..., AccessWidth = 33554436) -- CPU_ReadMem(4 bytes @ 0x4000004C) - Data: 00 00 00 00  returns 0x04 (0000ms, 19082ms total)
T2374 1669:816 JLINK_ReadMemEx(0x400000FC, 0x0004 Bytes, ..., AccessWidth = 33554436) -- CPU_ReadMem(4 bytes @ 0x400000FC) - Data: 00 00 00 00  returns 0x04 (0000ms, 19082ms total)
T2374 1671:779 JLINK_ReadMemEx(0x08000164, 0x003C Bytes, ..., AccessWidth = 33554432)Mis-aligned memory read: Address: 0x08000164, NumBytes: 60, Alignment: 2 (Halfword-aligned)
  ***** Mis-aligned memory read: Address: 0x08000164, NumBytes: 60, Alignment: 2 (Halfword-aligned) -- Read from C cache (60 bytes @ 0x08000164) - Data: 06 48 80 47 06 48 00 47 FE E7 FE E7 FE E7 FE E7 ...  returns 0x3C (0000ms, 19082ms total)
T2374 1671:779 JLINK_ReadMemEx(0x08000164, 0x0002 Bytes, ..., AccessWidth = 33554432)Mis-aligned memory read: Address: 0x08000164, NumBytes: 2, Alignment: 2 (Halfword-aligned)
  ***** Mis-aligned memory read: Address: 0x08000164, NumBytes: 2, Alignment: 2 (Halfword-aligned) -- Read from C cache (2 bytes @ 0x08000164) - Data: 06 48  returns 0x02 (0000ms, 19082ms total)
T2374 1671:779 JLINK_ReadMemEx(0x08000166, 0x0002 Bytes, ..., AccessWidth = 33554432)Mis-aligned memory read: Address: 0x08000166, NumBytes: 2, Alignment: 2 (Halfword-aligned)
  ***** Mis-aligned memory read: Address: 0x08000166, NumBytes: 2, Alignment: 2 (Halfword-aligned) -- Read from C cache (2 bytes @ 0x08000166) - Data: 80 47  returns 0x02 (0000ms, 19082ms total)
T2374 1671:779 JLINK_ReadMemEx(0x08000166, 0x0002 Bytes, ..., AccessWidth = 33554432)Mis-aligned memory read: Address: 0x08000166, NumBytes: 2, Alignment: 2 (Halfword-aligned)
  ***** Mis-aligned memory read: Address: 0x08000166, NumBytes: 2, Alignment: 2 (Halfword-aligned) -- Read from C cache (2 bytes @ 0x08000166) - Data: 80 47  returns 0x02 (0000ms, 19082ms total)
T2374 1671:779 JLINK_ReadMemEx(0x08000168, 0x003C Bytes, ..., AccessWidth = 33554432)Mis-aligned memory read: Address: 0x08000168, NumBytes: 60, Alignment: 2 (Halfword-aligned)
  ***** Mis-aligned memory read: Address: 0x08000168, NumBytes: 60, Alignment: 2 (Halfword-aligned) -- Read from C cache (60 bytes @ 0x08000168) - Data: 06 48 00 47 FE E7 FE E7 FE E7 FE E7 FE E7 FE E7 ...  returns 0x3C (0000ms, 19082ms total)
T2374 1671:779 JLINK_ReadMemEx(0x08000168, 0x0002 Bytes, ..., AccessWidth = 33554432)Mis-aligned memory read: Address: 0x08000168, NumBytes: 2, Alignment: 2 (Halfword-aligned)
  ***** Mis-aligned memory read: Address: 0x08000168, NumBytes: 2, Alignment: 2 (Halfword-aligned) -- Read from C cache (2 bytes @ 0x08000168) - Data: 06 48  returns 0x02 (0000ms, 19082ms total)
T2374 1672:093 JLINK_ReadReg(R0)  returns 0x00000000 (0001ms, 19083ms total)
T2374 1672:094 JLINK_ReadReg(R1)  returns 0x00000080 (0000ms, 19083ms total)
T2374 1672:094 JLINK_ReadReg(R2)  returns 0x00000EEC (0000ms, 19083ms total)
T2374 1672:094 JLINK_ReadReg(R3)  returns 0x04C11DB7 (0000ms, 19083ms total)
T2374 1672:094 JLINK_ReadReg(R4)  returns 0x00000000 (0000ms, 19083ms total)
T2374 1672:094 JLINK_ReadReg(R5)  returns 0x00000000 (0000ms, 19083ms total)
T2374 1672:094 JLINK_ReadReg(R6)  returns 0x00000000 (0000ms, 19083ms total)
T2374 1672:094 JLINK_ReadReg(R7)  returns 0x00000000 (0000ms, 19083ms total)
T2374 1672:094 JLINK_ReadReg(R8)  returns 0x00000000 (0000ms, 19083ms total)
T2374 1672:094 JLINK_ReadReg(R9)  returns 0x20000134 (0000ms, 19083ms total)
T2374 1672:094 JLINK_ReadReg(R10)  returns 0x00000000 (0000ms, 19083ms total)
T2374 1672:094 JLINK_ReadReg(R11)  returns 0x00000000 (0000ms, 19083ms total)
T2374 1672:094 JLINK_ReadReg(R12)  returns 0x00000000 (0000ms, 19083ms total)
T2374 1672:094 JLINK_ReadReg(R13 (SP))  returns 0x20000410 (0000ms, 19083ms total)
T2374 1672:094 JLINK_ReadReg(R14)  returns 0xFFFFFFFF (0000ms, 19083ms total)
T2374 1672:094 JLINK_ReadReg(R15 (PC))  returns 0x08000164 (0000ms, 19083ms total)
T2374 1672:094 JLINK_ReadReg(XPSR)  returns 0x01000000 (0000ms, 19083ms total)
T2374 1672:094 JLINK_ReadReg(MSP)  returns 0x20000410 (0000ms, 19083ms total)
T2374 1672:094 JLINK_ReadReg(PSP)  returns 0x20001000 (0000ms, 19083ms total)
T2374 1672:094 JLINK_ReadReg(CFBP)  returns 0x00000000 (0000ms, 19083ms total)
T2374 1672:094 JLINK_ReadReg(FPSCR)  returns 0x00000000 (0004ms, 19087ms total)
T2374 1672:098 JLINK_ReadReg(FPS0)  returns 0x899606ED (0000ms, 19087ms total)
T2374 1672:098 JLINK_ReadReg(FPS1)  returns 0x45EDD400 (0000ms, 19087ms total)
T2374 1672:098 JLINK_ReadReg(FPS2)  returns 0xE94C87F5 (0000ms, 19087ms total)
T2374 1672:098 JLINK_ReadReg(FPS3)  returns 0x06668613 (0000ms, 19087ms total)
T2374 1672:098 JLINK_ReadReg(FPS4)  returns 0xB283C7E0 (0000ms, 19087ms total)
T2374 1672:098 JLINK_ReadReg(FPS5)  returns 0x20B00612 (0000ms, 19087ms total)
T2374 1672:098 JLINK_ReadReg(FPS6)  returns 0x7E298854 (0000ms, 19087ms total)
T2374 1672:098 JLINK_ReadReg(FPS7)  returns 0x7C654208 (0000ms, 19087ms total)
T2374 1672:098 JLINK_ReadReg(FPS8)  returns 0x1228B3CC (0000ms, 19087ms total)
T2374 1672:098 JLINK_ReadReg(FPS9)  returns 0x3EA42F69 (0000ms, 19087ms total)
T2374 1672:098 JLINK_ReadReg(FPS10)  returns 0x2FB90F2B (0000ms, 19087ms total)
T2374 1672:098 JLINK_ReadReg(FPS11)  returns 0x9134C087 (0000ms, 19087ms total)
T2374 1672:098 JLINK_ReadReg(FPS12)  returns 0x26FED78F (0000ms, 19087ms total)
T2374 1672:098 JLINK_ReadReg(FPS13)  returns 0x8C0CC847 (0000ms, 19087ms total)
T2374 1672:098 JLINK_ReadReg(FPS14)  returns 0x2D69238C (0000ms, 19087ms total)
T2374 1672:098 JLINK_ReadReg(FPS15)  returns 0x27B852D3 (0000ms, 19087ms total)
T2374 1672:098 JLINK_ReadReg(FPS16)  returns 0x41EC2325 (0000ms, 19087ms total)
T2374 1672:098 JLINK_ReadReg(FPS17)  returns 0x2699F72E (0000ms, 19087ms total)
T2374 1672:098 JLINK_ReadReg(FPS18)  returns 0xEC482524 (0000ms, 19087ms total)
T2374 1672:098 JLINK_ReadReg(FPS19)  returns 0xE22F2790 (0001ms, 19088ms total)
T2374 1672:099 JLINK_ReadReg(FPS20)  returns 0xCBF201A6 (0000ms, 19088ms total)
T2374 1672:099 JLINK_ReadReg(FPS21)  returns 0x1A757DA6 (0000ms, 19088ms total)
T2374 1672:099 JLINK_ReadReg(FPS22)  returns 0xFC763AF3 (0000ms, 19088ms total)
T2374 1672:099 JLINK_ReadReg(FPS23)  returns 0xC1B9A6A8 (0000ms, 19088ms total)
T2374 1672:099 JLINK_ReadReg(FPS24)  returns 0x649BE8A1 (0000ms, 19088ms total)
T2374 1672:099 JLINK_ReadReg(FPS25)  returns 0x9D4CC08E (0000ms, 19088ms total)
T2374 1672:099 JLINK_ReadReg(FPS26)  returns 0xF670252A (0000ms, 19088ms total)
T2374 1672:099 JLINK_ReadReg(FPS27)  returns 0xEE8FA295 (0000ms, 19088ms total)
T2374 1672:099 JLINK_ReadReg(FPS28)  returns 0x348D9B7C (0000ms, 19088ms total)
T2374 1672:099 JLINK_ReadReg(FPS29)  returns 0x9001BF00 (0000ms, 19088ms total)
T2374 1672:099 JLINK_ReadReg(FPS30)  returns 0x12A0AE02 (0000ms, 19088ms total)
T2374 1672:099 JLINK_ReadReg(FPS31)  returns 0x4BC87BDB (0000ms, 19088ms total)
T228C 1672:195 JLINK_ReadMemEx(0x08000164, 0x0002 Bytes, ..., AccessWidth = 33554432)Mis-aligned memory read: Address: 0x08000164, NumBytes: 2, Alignment: 2 (Halfword-aligned)
  ***** Mis-aligned memory read: Address: 0x08000164, NumBytes: 2, Alignment: 2 (Halfword-aligned) -- Read from C cache (2 bytes @ 0x08000164) - Data: 06 48  returns 0x02 (0001ms, 19089ms total)
T228C 1672:196 JLINK_SetBPEx(Addr = 0x08000824, Type = 0xFFFFFFF2)  returns 0x00000001 (0000ms, 19089ms total)
T228C 1672:196 JLINK_SetBPEx(Addr = 0x080001DE, Type = 0xFFFFFFF2)  returns 0x00000002 (0000ms, 19089ms total)
T228C 1672:196 JLINK_Go() -- CPU_WriteMem(4 bytes @ 0xE0002000) -- CPU_WriteMem(4 bytes @ 0xE0002000) -- CPU_ReadMem(4 bytes @ 0xE0001000) -- CPU_WriteMem(4 bytes @ 0xE0002008) -- CPU_WriteMem(4 bytes @ 0xE000200C) -- CPU_WriteMem(4 bytes @ 0xE0002010) -- CPU_WriteMem(4 bytes @ 0xE0002014) -- CPU_WriteMem(4 bytes @ 0xE0002018) -- CPU_WriteMem(4 bytes @ 0xE000201C) -- CPU_WriteMem(4 bytes @ 0xE0001004) (0005ms, 19094ms total)
T228C 1672:301 JLINK_IsHalted()  returns TRUE (0003ms, 19097ms total)
T228C 1672:304 JLINK_Halt()  returns 0x00 (0000ms, 19094ms total)
T228C 1672:304 JLINK_IsHalted()  returns TRUE (0000ms, 19094ms total)
T228C 1672:304 JLINK_IsHalted()  returns TRUE (0000ms, 19094ms total)
T228C 1672:304 JLINK_IsHalted()  returns TRUE (0000ms, 19094ms total)
T228C 1672:304 JLINK_ReadReg(R15 (PC))  returns 0x08000824 (0000ms, 19094ms total)
T228C 1672:304 JLINK_ReadReg(XPSR)  returns 0x61000000 (0000ms, 19094ms total)
T228C 1672:304 JLINK_ClrBPEx(BPHandle = 0x00000001)  returns 0x00 (0000ms, 19094ms total)
T228C 1672:304 JLINK_ClrBPEx(BPHandle = 0x00000002)  returns 0x00 (0000ms, 19094ms total)
T228C 1672:304 JLINK_ReadMemU32(0xE000ED30, 0x0001 Items, ...) -- CPU_ReadMem(4 bytes @ 0xE000ED30) - Data: 03 00 00 00  returns 0x01 (0000ms, 19094ms total)
T228C 1672:304 JLINK_ReadMemU32(0xE0001028, 0x0001 Items, ...) -- CPU_ReadMem(4 bytes @ 0xE0001028) - Data: 00 00 00 00  returns 0x01 (0001ms, 19095ms total)
T228C 1672:305 JLINK_ReadMemU32(0xE0001038, 0x0001 Items, ...) -- CPU_ReadMem(4 bytes @ 0xE0001038) - Data: 00 02 00 00  returns 0x01 (0000ms, 19095ms total)
T228C 1672:305 JLINK_ReadMemU32(0xE0001048, 0x0001 Items, ...) -- CPU_ReadMem(4 bytes @ 0xE0001048) - Data: 00 00 00 00  returns 0x01 (0001ms, 19096ms total)
T228C 1672:306 JLINK_ReadMemU32(0xE0001058, 0x0001 Items, ...) -- CPU_ReadMem(4 bytes @ 0xE0001058) - Data: 00 00 00 00  returns 0x01 (0000ms, 19096ms total)
T228C 1672:306 JLINK_ReadReg(R0)  returns 0x08000825 (0000ms, 19096ms total)
T228C 1672:306 JLINK_ReadReg(R1)  returns 0x20000410 (0000ms, 19096ms total)
T228C 1672:306 JLINK_ReadReg(R2)  returns 0x00000000 (0000ms, 19096ms total)
T228C 1672:306 JLINK_ReadReg(R3)  returns 0x0800066D (0000ms, 19096ms total)
T228C 1672:306 JLINK_ReadReg(R4)  returns 0x08000EDC (0000ms, 19096ms total)
T228C 1672:306 JLINK_ReadReg(R5)  returns 0x08000EDC (0000ms, 19096ms total)
T228C 1672:306 JLINK_ReadReg(R6)  returns 0x00000000 (0000ms, 19096ms total)
T228C 1672:306 JLINK_ReadReg(R7)  returns 0x00000000 (0000ms, 19096ms total)
T228C 1672:306 JLINK_ReadReg(R8)  returns 0x00000000 (0000ms, 19096ms total)
T228C 1672:306 JLINK_ReadReg(R9)  returns 0x20000134 (0000ms, 19096ms total)
T228C 1672:306 JLINK_ReadReg(R10)  returns 0x00000000 (0000ms, 19096ms total)
T228C 1672:306 JLINK_ReadReg(R11)  returns 0x00000000 (0000ms, 19096ms total)
T228C 1672:306 JLINK_ReadReg(R12)  returns 0x00000000 (0000ms, 19096ms total)
T228C 1672:306 JLINK_ReadReg(R13 (SP))  returns 0x20000410 (0000ms, 19096ms total)
T228C 1672:306 JLINK_ReadReg(R14)  returns 0x080001A5 (0000ms, 19096ms total)
T228C 1672:306 JLINK_ReadReg(R15 (PC))  returns 0x08000824 (0000ms, 19096ms total)
T228C 1672:306 JLINK_ReadReg(XPSR)  returns 0x61000000 (0000ms, 19096ms total)
T228C 1672:306 JLINK_ReadReg(MSP)  returns 0x20000410 (0000ms, 19096ms total)
T228C 1672:306 JLINK_ReadReg(PSP)  returns 0x20001000 (0000ms, 19096ms total)
T228C 1672:306 JLINK_ReadReg(CFBP)  returns 0x00000000 (0000ms, 19096ms total)
T228C 1672:306 JLINK_ReadReg(FPSCR)  returns 0x00000000 (0004ms, 19100ms total)
T228C 1672:310 JLINK_ReadReg(FPS0)  returns 0x899606ED (0000ms, 19100ms total)
T228C 1672:310 JLINK_ReadReg(FPS1)  returns 0x45EDD400 (0000ms, 19100ms total)
T228C 1672:310 JLINK_ReadReg(FPS2)  returns 0xE94C87F5 (0000ms, 19100ms total)
T228C 1672:310 JLINK_ReadReg(FPS3)  returns 0x06668613 (0000ms, 19100ms total)
T228C 1672:310 JLINK_ReadReg(FPS4)  returns 0xB283C7E0 (0000ms, 19100ms total)
T228C 1672:310 JLINK_ReadReg(FPS5)  returns 0x20B00612 (0000ms, 19100ms total)
T228C 1672:310 JLINK_ReadReg(FPS6)  returns 0x7E298854 (0000ms, 19100ms total)
T228C 1672:310 JLINK_ReadReg(FPS7)  returns 0x7C654208 (0000ms, 19100ms total)
T228C 1672:310 JLINK_ReadReg(FPS8)  returns 0x1228B3CC (0000ms, 19100ms total)
T228C 1672:310 JLINK_ReadReg(FPS9)  returns 0x3EA42F69 (0000ms, 19100ms total)
T228C 1672:310 JLINK_ReadReg(FPS10)  returns 0x2FB90F2B (0000ms, 19100ms total)
T228C 1672:310 JLINK_ReadReg(FPS11)  returns 0x9134C087 (0000ms, 19100ms total)
T228C 1672:310 JLINK_ReadReg(FPS12)  returns 0x26FED78F (0000ms, 19100ms total)
T228C 1672:310 JLINK_ReadReg(FPS13)  returns 0x8C0CC847 (0000ms, 19100ms total)
T228C 1672:310 JLINK_ReadReg(FPS14)  returns 0x2D69238C (0000ms, 19100ms total)
T228C 1672:310 JLINK_ReadReg(FPS15)  returns 0x27B852D3 (0000ms, 19100ms total)
T228C 1672:310 JLINK_ReadReg(FPS16)  returns 0x41EC2325 (0000ms, 19100ms total)
T228C 1672:310 JLINK_ReadReg(FPS17)  returns 0x2699F72E (0000ms, 19100ms total)
T228C 1672:310 JLINK_ReadReg(FPS18)  returns 0xEC482524 (0000ms, 19100ms total)
T228C 1672:310 JLINK_ReadReg(FPS19)  returns 0xE22F2790 (0000ms, 19100ms total)
T228C 1672:310 JLINK_ReadReg(FPS20)  returns 0xCBF201A6 (0000ms, 19100ms total)
T228C 1672:310 JLINK_ReadReg(FPS21)  returns 0x1A757DA6 (0000ms, 19100ms total)
T228C 1672:310 JLINK_ReadReg(FPS22)  returns 0xFC763AF3 (0000ms, 19100ms total)
T228C 1672:310 JLINK_ReadReg(FPS23)  returns 0xC1B9A6A8 (0000ms, 19100ms total)
T228C 1672:310 JLINK_ReadReg(FPS24)  returns 0x649BE8A1 (0000ms, 19100ms total)
T228C 1672:310 JLINK_ReadReg(FPS25)  returns 0x9D4CC08E (0000ms, 19100ms total)
T228C 1672:310 JLINK_ReadReg(FPS26)  returns 0xF670252A (0000ms, 19100ms total)
T228C 1672:310 JLINK_ReadReg(FPS27)  returns 0xEE8FA295 (0000ms, 19100ms total)
T228C 1672:310 JLINK_ReadReg(FPS28)  returns 0x348D9B7C (0000ms, 19100ms total)
T228C 1672:310 JLINK_ReadReg(FPS29)  returns 0x9001BF00 (0000ms, 19100ms total)
T228C 1672:310 JLINK_ReadReg(FPS30)  returns 0x12A0AE02 (0000ms, 19100ms total)
T228C 1672:310 JLINK_ReadReg(FPS31)  returns 0x4BC87BDB (0000ms, 19100ms total)
T2374 1672:324 JLINK_ReadMemEx(0x40000000, 0x0010 Bytes, ..., AccessWidth = 33554436) -- CPU_ReadMem(16 bytes @ 0x40000000) - Data: 00 00 00 00 00 00 00 00 00 00 00 00 00 00 00 00  returns 0x10 (0002ms, 19102ms total)
T2374 1672:326 JLINK_ReadMemEx(0x40000010, 0x0004 Bytes, ..., AccessWidth = 33554436) -- CPU_ReadMem(4 bytes @ 0x40000010) - Data: 00 00 00 00  returns 0x04 (0000ms, 19102ms total)
T2374 1672:326 JLINK_ReadMemEx(0x40000018, 0x0014 Bytes, ..., AccessWidth = 33554436) -- CPU_ReadMem(20 bytes @ 0x40000018) - Data: 00 00 00 00 00 00 00 00 00 00 00 00 00 00 00 00 ...  returns 0x14 (0001ms, 19103ms total)
T2374 1672:327 JLINK_ReadMemEx(0x4000002C, 0x0004 Bytes, ..., AccessWidth = 33554436) -- CPU_ReadMem(4 bytes @ 0x4000002C) - Data: 00 00 00 00  returns 0x04 (0000ms, 19103ms total)
T2374 1672:327 JLINK_ReadMemEx(0x40000034, 0x000C Bytes, ..., AccessWidth = 33554436) -- CPU_ReadMem(12 bytes @ 0x40000034) - Data: 00 00 00 00 00 00 00 00 00 00 00 00  returns 0x0C (0001ms, 19104ms total)
T2374 1672:328 JLINK_ReadMemEx(0x40000040, 0x0004 Bytes, ..., AccessWidth = 33554436) -- CPU_ReadMem(4 bytes @ 0x40000040) - Data: 00 00 00 00  returns 0x04 (0000ms, 19104ms total)
T2374 1672:328 JLINK_ReadMemEx(0x40000048, 0x0004 Bytes, ..., AccessWidth = 33554436) -- CPU_ReadMem(4 bytes @ 0x40000048) - Data: 00 00 00 00  returns 0x04 (0001ms, 19105ms total)
T2374 1672:329 JLINK_ReadMemEx(0x4000004C, 0x0004 Bytes, ..., AccessWidth = 33554436) -- CPU_ReadMem(4 bytes @ 0x4000004C) - Data: 00 00 00 00  returns 0x04 (0000ms, 19105ms total)
T2374 1672:329 JLINK_ReadMemEx(0x400000FC, 0x0004 Bytes, ..., AccessWidth = 33554436) -- CPU_ReadMem(4 bytes @ 0x400000FC) - Data: 00 00 00 00  returns 0x04 (0000ms, 19105ms total)
T2374 1672:333 JLINK_ReadMemEx(0x48000800, 0x0014 Bytes, ..., AccessWidth = 33554436) -- CPU_ReadMem(20 bytes @ 0x48000800) - Data: 00 00 00 00 00 00 00 00 00 00 00 00 00 00 00 00 ...  returns 0x14 (0000ms, 19105ms total)
T2374 1672:333 JLINK_ReadMemEx(0x48000814, 0x0004 Bytes, ..., AccessWidth = 33554436) -- CPU_ReadMem(4 bytes @ 0x48000814) - Data: 00 00 00 00  returns 0x04 (0001ms, 19106ms total)
T2374 1672:334 JLINK_ReadMemEx(0x48000820, 0x0004 Bytes, ..., AccessWidth = 33554436) -- CPU_ReadMem(4 bytes @ 0x48000820) - Data: 00 00 00 00  returns 0x04 (0001ms, 19107ms total)
T2374 1672:335 JLINK_ReadMemEx(0x48000824, 0x0004 Bytes, ..., AccessWidth = 33554436) -- CPU_ReadMem(4 bytes @ 0x48000824) - Data: 00 00 00 00  returns 0x04 (0000ms, 19107ms total)
T2374 1672:335 JLINK_ReadMemEx(0x4800083C, 0x0004 Bytes, ..., AccessWidth = 33554436) -- CPU_ReadMem(4 bytes @ 0x4800083C) - Data: 00 00 00 00  returns 0x04 (0001ms, 19108ms total)
T2374 1672:340 JLINK_ReadMemEx(0x08000824, 0x003C Bytes, ..., AccessWidth = 33554432)Mis-aligned memory read: Address: 0x08000824, NumBytes: 60, Alignment: 2 (Halfword-aligned)
  ***** Mis-aligned memory read: Address: 0x08000824, NumBytes: 60, Alignment: 2 (Halfword-aligned) -- CPU_ReadMem(128 bytes @ 0x08000800) -- Updating C cache (128 bytes @ 0x08000800) -- Read from C cache (60 bytes @ 0x08000824) - Data: FF F7 F0 FC 00 F0 D2 F8 FF F7 50 FF FF F7 C4 FE ...  returns 0x3C (0001ms, 19109ms total)
T2374 1672:341 JLINK_ReadMemEx(0x08000824, 0x0002 Bytes, ..., AccessWidth = 33554432)Mis-aligned memory read: Address: 0x08000824, NumBytes: 2, Alignment: 2 (Halfword-aligned)
  ***** Mis-aligned memory read: Address: 0x08000824, NumBytes: 2, Alignment: 2 (Halfword-aligned) -- Read from C cache (2 bytes @ 0x08000824) - Data: FF F7  returns 0x02 (0001ms, 19110ms total)
T2374 1672:342 JLINK_ReadMemEx(0x08000826, 0x0002 Bytes, ..., AccessWidth = 33554432)Mis-aligned memory read: Address: 0x08000826, NumBytes: 2, Alignment: 2 (Halfword-aligned)
  ***** Mis-aligned memory read: Address: 0x08000826, NumBytes: 2, Alignment: 2 (Halfword-aligned) -- Read from C cache (2 bytes @ 0x08000826) - Data: F0 FC  returns 0x02 (0000ms, 19110ms total)
T228C 1698:597 JLINK_ReadMemEx(0x08000824, 0x0002 Bytes, ..., AccessWidth = 33554432)Mis-aligned memory read: Address: 0x08000824, NumBytes: 2, Alignment: 2 (Halfword-aligned)
  ***** Mis-aligned memory read: Address: 0x08000824, NumBytes: 2, Alignment: 2 (Halfword-aligned) -- Read from C cache (2 bytes @ 0x08000824) - Data: FF F7  returns 0x02 (0001ms, 19111ms total)
T228C 1698:598 JLINK_SetBPEx(Addr = 0x080001DE, Type = 0xFFFFFFF2)  returns 0x00000003 (0000ms, 19111ms total)
T228C 1698:598 JLINK_Go() -- CPU_WriteMem(4 bytes @ 0xE0002000) -- CPU_ReadMem(4 bytes @ 0xE0001000) -- CPU_WriteMem(4 bytes @ 0xE0002008) -- CPU_WriteMem(4 bytes @ 0xE000200C) (0002ms, 19113ms total)
T228C 1698:701 JLINK_IsHalted()  returns FALSE (0000ms, 19113ms total)
T228C 1698:802 JLINK_IsHalted()  returns FALSE (0000ms, 19113ms total)
T228C 1698:903 JLINK_IsHalted()  returns FALSE (0000ms, 19113ms total)
T228C 1699:004 JLINK_IsHalted()  returns FALSE (0001ms, 19114ms total)
T228C 1699:105 JLINK_IsHalted()  returns FALSE (0001ms, 19114ms total)
T228C 1699:206 JLINK_ReadMemU32(0xE0001004, 0x0001 Items, ...) -- CPU is running -- CPU_ReadMem(4 bytes @ 0xE0001004) - Data: C5 36 F4 01  returns 0x01 (0001ms, 19114ms total)
T2374 1699:214 JLINK_ReadMemEx(0x40000000, 0x0010 Bytes, ..., AccessWidth = 33554436) -- CPU is running -- CPU_ReadMem(16 bytes @ 0x40000000) - Data: 81 00 00 00 00 00 00 00 00 00 00 00 00 00 00 00  returns 0x10 (0001ms, 19115ms total)
T2374 1699:215 JLINK_ReadMemEx(0x40000010, 0x0004 Bytes, ..., AccessWidth = 33554436) -- CPU is running -- CPU_ReadMem(4 bytes @ 0x40000010) - Data: 1F 00 00 00  returns 0x04 (0001ms, 19116ms total)
T2374 1699:216 JLINK_ReadMemEx(0x40000018, 0x0014 Bytes, ..., AccessWidth = 33554436) -- CPU is running -- CPU_ReadMem(20 bytes @ 0x40000018) - Data: 00 70 00 00 00 00 00 00 10 00 00 00 F0 00 00 00 ...  returns 0x14 (0001ms, 19117ms total)
T2374 1699:217 JLINK_ReadMemEx(0x4000002C, 0x0004 Bytes, ..., AccessWidth = 33554436) -- CPU is running -- CPU_ReadMem(4 bytes @ 0x4000002C) - Data: F4 01 00 00  returns 0x04 (0001ms, 19118ms total)
T2374 1699:218 JLINK_ReadMemEx(0x40000034, 0x000C Bytes, ..., AccessWidth = 33554436) -- CPU is running -- CPU_ReadMem(12 bytes @ 0x40000034) - Data: 00 00 00 00 3C 00 00 00 00 00 00 00  returns 0x0C (0000ms, 19118ms total)
T2374 1699:218 JLINK_ReadMemEx(0x40000040, 0x0004 Bytes, ..., AccessWidth = 33554436) -- CPU is running -- CPU_ReadMem(4 bytes @ 0x40000040) - Data: 00 00 00 00  returns 0x04 (0001ms, 19119ms total)
T2374 1699:219 JLINK_ReadMemEx(0x40000048, 0x0004 Bytes, ..., AccessWidth = 33554436) -- CPU is running -- CPU_ReadMem(4 bytes @ 0x40000048) - Data: 00 00 00 00  returns 0x04 (0000ms, 19119ms total)
T2374 1699:219 JLINK_ReadMemEx(0x4000004C, 0x0004 Bytes, ..., AccessWidth = 33554436) -- CPU is running -- CPU_ReadMem(4 bytes @ 0x4000004C) - Data: 81 00 00 00  returns 0x04 (0000ms, 19119ms total)
T2374 1699:219 JLINK_ReadMemEx(0x400000FC, 0x0004 Bytes, ..., AccessWidth = 33554436) -- CPU is running -- CPU_ReadMem(4 bytes @ 0x400000FC) - Data: 00 00 00 00  returns 0x04 (0002ms, 19121ms total)
T2374 1699:266 JLINK_ReadMemEx(0x48000800, 0x0014 Bytes, ..., AccessWidth = 33554436) -- CPU is running -- CPU_ReadMem(20 bytes @ 0x48000800) - Data: 00 00 00 00 00 00 00 00 00 00 00 00 00 00 00 00 ...  returns 0x14 (0001ms, 19122ms total)
T2374 1699:267 JLINK_ReadMemEx(0x48000814, 0x0004 Bytes, ..., AccessWidth = 33554436) -- CPU is running -- CPU_ReadMem(4 bytes @ 0x48000814) - Data: 00 00 00 00  returns 0x04 (0001ms, 19123ms total)
T2374 1699:268 JLINK_ReadMemEx(0x48000820, 0x0004 Bytes, ..., AccessWidth = 33554436) -- CPU is running -- CPU_ReadMem(4 bytes @ 0x48000820) - Data: 00 00 00 00  returns 0x04 (0000ms, 19123ms total)
T2374 1699:268 JLINK_ReadMemEx(0x48000824, 0x0004 Bytes, ..., AccessWidth = 33554436) -- CPU is running -- CPU_ReadMem(4 bytes @ 0x48000824) - Data: 00 00 00 00  returns 0x04 (0001ms, 19124ms total)
T2374 1699:269 JLINK_ReadMemEx(0x4800083C, 0x0004 Bytes, ..., AccessWidth = 33554436) -- CPU is running -- CPU_ReadMem(4 bytes @ 0x4800083C) - Data: 00 00 00 00  returns 0x04 (0000ms, 19124ms total)
T228C 1699:273 JLINK_IsHalted()  returns FALSE (0001ms, 19125ms total)
T228C 1699:375 JLINK_IsHalted()  returns FALSE (0000ms, 19124ms total)
T228C 1699:476 JLINK_IsHalted()  returns FALSE (0000ms, 19124ms total)
T228C 1699:577 JLINK_IsHalted()  returns FALSE (0000ms, 19124ms total)
T228C 1699:678 JLINK_IsHalted()  returns FALSE (0000ms, 19124ms total)
T228C 1699:779 JLINK_ReadMemU32(0xE0001004, 0x0001 Items, ...) -- CPU is running -- CPU_ReadMem(4 bytes @ 0xE0001004) - Data: F5 11 CC 03  returns 0x01 (0000ms, 19124ms total)
T2374 1699:786 JLINK_ReadMemEx(0x40000000, 0x0010 Bytes, ..., AccessWidth = 33554436) -- CPU is running -- CPU_ReadMem(16 bytes @ 0x40000000) - Data: 81 00 00 00 00 00 00 00 00 00 00 00 00 00 00 00  returns 0x10 (0001ms, 19125ms total)
T2374 1699:787 JLINK_ReadMemEx(0x40000010, 0x0004 Bytes, ..., AccessWidth = 33554436) -- CPU is running -- CPU_ReadMem(4 bytes @ 0x40000010) - Data: 1F 00 00 00  returns 0x04 (0000ms, 19125ms total)
T2374 1699:787 JLINK_ReadMemEx(0x40000018, 0x0014 Bytes, ..., AccessWidth = 33554436) -- CPU is running -- CPU_ReadMem(20 bytes @ 0x40000018) - Data: 00 70 00 00 00 00 00 00 10 00 00 00 8E 00 00 00 ...  returns 0x14 (0002ms, 19127ms total)
T2374 1699:789 JLINK_ReadMemEx(0x4000002C, 0x0004 Bytes, ..., AccessWidth = 33554436) -- CPU is running -- CPU_ReadMem(4 bytes @ 0x4000002C) - Data: F4 01 00 00  returns 0x04 (0000ms, 19127ms total)
T2374 1699:789 JLINK_ReadMemEx(0x40000034, 0x000C Bytes, ..., AccessWidth = 33554436) -- CPU is running -- CPU_ReadMem(12 bytes @ 0x40000034) - Data: 00 00 00 00 6E 00 00 00 00 00 00 00  returns 0x0C (0000ms, 19127ms total)
T2374 1699:789 JLINK_ReadMemEx(0x40000040, 0x0004 Bytes, ..., AccessWidth = 33554436) -- CPU is running -- CPU_ReadMem(4 bytes @ 0x40000040) - Data: 00 00 00 00  returns 0x04 (0001ms, 19128ms total)
T2374 1699:790 JLINK_ReadMemEx(0x40000048, 0x0004 Bytes, ..., AccessWidth = 33554436) -- CPU is running -- CPU_ReadMem(4 bytes @ 0x40000048) - Data: 00 00 00 00  returns 0x04 (0000ms, 19128ms total)
T2374 1699:790 JLINK_ReadMemEx(0x4000004C, 0x0004 Bytes, ..., AccessWidth = 33554436) -- CPU is running -- CPU_ReadMem(4 bytes @ 0x4000004C) - Data: 81 00 00 00  returns 0x04 (0001ms, 19129ms total)
T2374 1699:791 JLINK_ReadMemEx(0x400000FC, 0x0004 Bytes, ..., AccessWidth = 33554436) -- CPU is running -- CPU_ReadMem(4 bytes @ 0x400000FC) - Data: 00 00 00 00  returns 0x04 (0000ms, 19129ms total)
T2374 1699:802 JLINK_ReadMemEx(0x48000800, 0x0014 Bytes, ..., AccessWidth = 33554436) -- CPU is running -- CPU_ReadMem(20 bytes @ 0x48000800) - Data: 00 00 00 00 00 00 00 00 00 00 00 00 00 00 00 00 ...  returns 0x14 (0000ms, 19129ms total)
T2374 1699:802 JLINK_ReadMemEx(0x48000814, 0x0004 Bytes, ..., AccessWidth = 33554436) -- CPU is running -- CPU_ReadMem(4 bytes @ 0x48000814) - Data: 00 00 00 00  returns 0x04 (0002ms, 19131ms total)
T2374 1699:804 JLINK_ReadMemEx(0x48000820, 0x0004 Bytes, ..., AccessWidth = 33554436) -- CPU is running -- CPU_ReadMem(4 bytes @ 0x48000820) - Data: 00 00 00 00  returns 0x04 (0000ms, 19131ms total)
T2374 1699:804 JLINK_ReadMemEx(0x48000824, 0x0004 Bytes, ..., AccessWidth = 33554436) -- CPU is running -- CPU_ReadMem(4 bytes @ 0x48000824) - Data: 00 00 00 00  returns 0x04 (0001ms, 19132ms total)
T2374 1699:805 JLINK_ReadMemEx(0x4800083C, 0x0004 Bytes, ..., AccessWidth = 33554436) -- CPU is running -- CPU_ReadMem(4 bytes @ 0x4800083C) - Data: 00 00 00 00  returns 0x04 (0000ms, 19132ms total)
T228C 1699:811 JLINK_IsHalted()  returns FALSE (0000ms, 19132ms total)
T228C 1699:912 JLINK_IsHalted()  returns FALSE (0000ms, 19132ms total)
T228C 1700:013 JLINK_IsHalted()  returns FALSE (0000ms, 19132ms total)
T228C 1700:114 JLINK_IsHalted()  returns FALSE (0000ms, 19132ms total)
T228C 1700:215 JLINK_IsHalted()  returns FALSE (0000ms, 19132ms total)
T228C 1700:316 JLINK_ReadMemU32(0xE0001004, 0x0001 Items, ...) -- CPU is running -- CPU_ReadMem(4 bytes @ 0xE0001004) - Data: 06 3C 87 05  returns 0x01 (0000ms, 19132ms total)
T2374 1700:334 JLINK_ReadMemEx(0x40000000, 0x0010 Bytes, ..., AccessWidth = 33554436) -- CPU is running -- CPU_ReadMem(16 bytes @ 0x40000000) - Data: 81 00 00 00 00 00 00 00 00 00 00 00 00 00 00 00  returns 0x10 (0002ms, 19134ms total)
T2374 1700:336 JLINK_ReadMemEx(0x40000010, 0x0004 Bytes, ..., AccessWidth = 33554436) -- CPU is running -- CPU_ReadMem(4 bytes @ 0x40000010) - Data: 1F 00 00 00  returns 0x04 (0000ms, 19134ms total)
T2374 1700:336 JLINK_ReadMemEx(0x40000018, 0x0014 Bytes, ..., AccessWidth = 33554436) -- CPU is running -- CPU_ReadMem(20 bytes @ 0x40000018) - Data: 00 70 00 00 00 00 00 00 10 00 00 00 80 01 00 00 ...  returns 0x14 (0001ms, 19135ms total)
T2374 1700:337 JLINK_ReadMemEx(0x4000002C, 0x0004 Bytes, ..., AccessWidth = 33554436) -- CPU is running -- CPU_ReadMem(4 bytes @ 0x4000002C) - Data: F4 01 00 00  returns 0x04 (0000ms, 19135ms total)
T2374 1700:337 JLINK_ReadMemEx(0x40000034, 0x000C Bytes, ..., AccessWidth = 33554436) -- CPU is running -- CPU_ReadMem(12 bytes @ 0x40000034) - Data: 00 00 00 00 AA 00 00 00 00 00 00 00  returns 0x0C (0001ms, 19136ms total)
T2374 1700:338 JLINK_ReadMemEx(0x40000040, 0x0004 Bytes, ..., AccessWidth = 33554436) -- CPU is running -- CPU_ReadMem(4 bytes @ 0x40000040) - Data: 00 00 00 00  returns 0x04 (0001ms, 19137ms total)
T2374 1700:339 JLINK_ReadMemEx(0x40000048, 0x0004 Bytes, ..., AccessWidth = 33554436) -- CPU is running -- CPU_ReadMem(4 bytes @ 0x40000048) - Data: 00 00 00 00  returns 0x04 (0000ms, 19137ms total)
T2374 1700:339 JLINK_ReadMemEx(0x4000004C, 0x0004 Bytes, ..., AccessWidth = 33554436) -- CPU is running -- CPU_ReadMem(4 bytes @ 0x4000004C) - Data: 81 00 00 00  returns 0x04 (0000ms, 19137ms total)
T2374 1700:339 JLINK_ReadMemEx(0x400000FC, 0x0004 Bytes, ..., AccessWidth = 33554436) -- CPU is running -- CPU_ReadMem(4 bytes @ 0x400000FC) - Data: 00 00 00 00  returns 0x04 (0001ms, 19138ms total)
T2374 1700:359 JLINK_ReadMemEx(0x48000800, 0x0014 Bytes, ..., AccessWidth = 33554436) -- CPU is running -- CPU_ReadMem(20 bytes @ 0x48000800) - Data: 00 00 00 00 00 00 00 00 00 00 00 00 00 00 00 00 ...  returns 0x14 (0000ms, 19138ms total)
T2374 1700:359 JLINK_ReadMemEx(0x48000814, 0x0004 Bytes, ..., AccessWidth = 33554436) -- CPU is running -- CPU_ReadMem(4 bytes @ 0x48000814) - Data: 00 00 00 00  returns 0x04 (0001ms, 19139ms total)
T2374 1700:360 JLINK_ReadMemEx(0x48000820, 0x0004 Bytes, ..., AccessWidth = 33554436) -- CPU is running -- CPU_ReadMem(4 bytes @ 0x48000820) - Data: 00 00 00 00  returns 0x04 (0001ms, 19140ms total)
T2374 1700:361 JLINK_ReadMemEx(0x48000824, 0x0004 Bytes, ..., AccessWidth = 33554436) -- CPU is running -- CPU_ReadMem(4 bytes @ 0x48000824) - Data: 00 00 00 00  returns 0x04 (0000ms, 19140ms total)
T2374 1700:361 JLINK_ReadMemEx(0x4800083C, 0x0004 Bytes, ..., AccessWidth = 33554436) -- CPU is running -- CPU_ReadMem(4 bytes @ 0x4800083C) - Data: 00 00 00 00  returns 0x04 (0001ms, 19141ms total)
T228C 1700:369 JLINK_IsHalted()  returns FALSE (0000ms, 19141ms total)
T228C 1700:470 JLINK_IsHalted()  returns FALSE (0000ms, 19141ms total)
T228C 1700:571 JLINK_IsHalted()  returns FALSE (0000ms, 19141ms total)
T228C 1700:672 JLINK_IsHalted()  returns FALSE (0000ms, 19141ms total)
T228C 1700:773 JLINK_IsHalted()  returns FALSE (0000ms, 19141ms total)
T228C 1700:874 JLINK_ReadMemU32(0xE0001004, 0x0001 Items, ...) -- CPU is running -- CPU_ReadMem(4 bytes @ 0xE0001004) - Data: E9 A0 52 07  returns 0x01 (0000ms, 19141ms total)
T2374 1700:885 JLINK_ReadMemEx(0x40000000, 0x0010 Bytes, ..., AccessWidth = 33554436) -- CPU is running -- CPU_ReadMem(16 bytes @ 0x40000000) - Data: 81 00 00 00 00 00 00 00 00 00 00 00 00 00 00 00  returns 0x10 (0001ms, 19142ms total)
T2374 1700:886 JLINK_ReadMemEx(0x40000010, 0x0004 Bytes, ..., AccessWidth = 33554436) -- CPU is running -- CPU_ReadMem(4 bytes @ 0x40000010) - Data: 1F 00 00 00  returns 0x04 (0001ms, 19143ms total)
T2374 1700:887 JLINK_ReadMemEx(0x40000018, 0x0014 Bytes, ..., AccessWidth = 33554436) -- CPU is running -- CPU_ReadMem(20 bytes @ 0x40000018) - Data: 00 70 00 00 00 00 00 00 10 00 00 00 BC 00 00 00 ...  returns 0x14 (0001ms, 19144ms total)
T2374 1700:888 JLINK_ReadMemEx(0x4000002C, 0x0004 Bytes, ..., AccessWidth = 33554436) -- CPU is running -- CPU_ReadMem(4 bytes @ 0x4000002C) - Data: F4 01 00 00  returns 0x04 (0000ms, 19144ms total)
T2374 1700:888 JLINK_ReadMemEx(0x40000034, 0x000C Bytes, ..., AccessWidth = 33554436) -- CPU is running -- CPU_ReadMem(12 bytes @ 0x40000034) - Data: 00 00 00 00 DC 00 00 00 00 00 00 00  returns 0x0C (0001ms, 19145ms total)
T2374 1700:889 JLINK_ReadMemEx(0x40000040, 0x0004 Bytes, ..., AccessWidth = 33554436) -- CPU is running -- CPU_ReadMem(4 bytes @ 0x40000040) - Data: 00 00 00 00  returns 0x04 (0000ms, 19145ms total)
T2374 1700:889 JLINK_ReadMemEx(0x40000048, 0x0004 Bytes, ..., AccessWidth = 33554436) -- CPU is running -- CPU_ReadMem(4 bytes @ 0x40000048) - Data: 00 00 00 00  returns 0x04 (0000ms, 19145ms total)
T2374 1700:889 JLINK_ReadMemEx(0x4000004C, 0x0004 Bytes, ..., AccessWidth = 33554436) -- CPU is running -- CPU_ReadMem(4 bytes @ 0x4000004C) - Data: 81 00 00 00  returns 0x04 (0001ms, 19146ms total)
T2374 1700:890 JLINK_ReadMemEx(0x400000FC, 0x0004 Bytes, ..., AccessWidth = 33554436) -- CPU is running -- CPU_ReadMem(4 bytes @ 0x400000FC) - Data: 00 00 00 00  returns 0x04 (0000ms, 19146ms total)
T2374 1700:907 JLINK_ReadMemEx(0x48000800, 0x0014 Bytes, ..., AccessWidth = 33554436) -- CPU is running -- CPU_ReadMem(20 bytes @ 0x48000800) - Data: 00 00 00 00 00 00 00 00 00 00 00 00 00 00 00 00 ...  returns 0x14 (0001ms, 19147ms total)
T2374 1700:908 JLINK_ReadMemEx(0x48000814, 0x0004 Bytes, ..., AccessWidth = 33554436) -- CPU is running -- CPU_ReadMem(4 bytes @ 0x48000814) - Data: 00 00 00 00  returns 0x04 (0000ms, 19147ms total)
T2374 1700:908 JLINK_ReadMemEx(0x48000820, 0x0004 Bytes, ..., AccessWidth = 33554436) -- CPU is running -- CPU_ReadMem(4 bytes @ 0x48000820) - Data: 00 00 00 00  returns 0x04 (0001ms, 19148ms total)
T2374 1700:909 JLINK_ReadMemEx(0x48000824, 0x0004 Bytes, ..., AccessWidth = 33554436) -- CPU is running -- CPU_ReadMem(4 bytes @ 0x48000824) - Data: 00 00 00 00  returns 0x04 (0000ms, 19148ms total)
T2374 1700:909 JLINK_ReadMemEx(0x4800083C, 0x0004 Bytes, ..., AccessWidth = 33554436) -- CPU is running -- CPU_ReadMem(4 bytes @ 0x4800083C) - Data: 00 00 00 00  returns 0x04 (0001ms, 19149ms total)
T228C 1700:917 JLINK_IsHalted()  returns FALSE (0000ms, 19149ms total)
T228C 1701:018 JLINK_IsHalted()  returns FALSE (0000ms, 19149ms total)
T228C 1701:118 JLINK_IsHalted()  returns FALSE (0001ms, 19150ms total)
T228C 1701:220 JLINK_IsHalted()  returns FALSE (0000ms, 19149ms total)
T228C 1701:321 JLINK_IsHalted()  returns FALSE (0000ms, 19149ms total)
T228C 1701:422 JLINK_ReadMemU32(0xE0001004, 0x0001 Items, ...) -- CPU is running -- CPU_ReadMem(4 bytes @ 0xE0001004) - Data: 26 79 16 09  returns 0x01 (0000ms, 19149ms total)
T2374 1701:430 JLINK_ReadMemEx(0x40000000, 0x0010 Bytes, ..., AccessWidth = 33554436) -- CPU is running -- CPU_ReadMem(16 bytes @ 0x40000000) - Data: 81 00 00 00 00 00 00 00 00 00 00 00 00 00 00 00  returns 0x10 (0000ms, 19149ms total)
T2374 1701:430 JLINK_ReadMemEx(0x40000010, 0x0004 Bytes, ..., AccessWidth = 33554436) -- CPU is running -- CPU_ReadMem(4 bytes @ 0x40000010) - Data: 1F 00 00 00  returns 0x04 (0001ms, 19150ms total)
T2374 1701:431 JLINK_ReadMemEx(0x40000018, 0x0014 Bytes, ..., AccessWidth = 33554436) -- CPU is running -- CPU_ReadMem(20 bytes @ 0x40000018) - Data: 00 70 00 00 00 00 00 00 10 00 00 00 8D 01 00 00 ...  returns 0x14 (0001ms, 19151ms total)
T2374 1701:432 JLINK_ReadMemEx(0x4000002C, 0x0004 Bytes, ..., AccessWidth = 33554436) -- CPU is running -- CPU_ReadMem(4 bytes @ 0x4000002C) - Data: F4 01 00 00  returns 0x04 (0001ms, 19152ms total)
T2374 1701:433 JLINK_ReadMemEx(0x40000034, 0x000C Bytes, ..., AccessWidth = 33554436) -- CPU is running -- CPU_ReadMem(12 bytes @ 0x40000034) - Data: 00 00 00 00 0E 01 00 00 00 00 00 00  returns 0x0C (0001ms, 19153ms total)
T2374 1701:434 JLINK_ReadMemEx(0x40000040, 0x0004 Bytes, ..., AccessWidth = 33554436) -- CPU is running -- CPU_ReadMem(4 bytes @ 0x40000040) - Data: 00 00 00 00  returns 0x04 (0000ms, 19153ms total)
T2374 1701:434 JLINK_ReadMemEx(0x40000048, 0x0004 Bytes, ..., AccessWidth = 33554436) -- CPU is running -- CPU_ReadMem(4 bytes @ 0x40000048) - Data: 00 00 00 00  returns 0x04 (0000ms, 19153ms total)
T2374 1701:434 JLINK_ReadMemEx(0x4000004C, 0x0004 Bytes, ..., AccessWidth = 33554436) -- CPU is running -- CPU_ReadMem(4 bytes @ 0x4000004C) - Data: 81 00 00 00  returns 0x04 (0001ms, 19154ms total)
T2374 1701:435 JLINK_ReadMemEx(0x400000FC, 0x0004 Bytes, ..., AccessWidth = 33554436) -- CPU is running -- CPU_ReadMem(4 bytes @ 0x400000FC) - Data: 00 00 00 00  returns 0x04 (0001ms, 19155ms total)
T2374 1701:459 JLINK_ReadMemEx(0x48000800, 0x0014 Bytes, ..., AccessWidth = 33554436) -- CPU is running -- CPU_ReadMem(20 bytes @ 0x48000800) - Data: 00 00 00 00 00 00 00 00 00 00 00 00 00 00 00 00 ...  returns 0x14 (0000ms, 19155ms total)
T2374 1701:459 JLINK_ReadMemEx(0x48000814, 0x0004 Bytes, ..., AccessWidth = 33554436) -- CPU is running -- CPU_ReadMem(4 bytes @ 0x48000814) - Data: 00 00 00 00  returns 0x04 (0001ms, 19156ms total)
T2374 1701:460 JLINK_ReadMemEx(0x48000820, 0x0004 Bytes, ..., AccessWidth = 33554436) -- CPU is running -- CPU_ReadMem(4 bytes @ 0x48000820) - Data: 00 00 00 00  returns 0x04 (0000ms, 19156ms total)
T2374 1701:461 JLINK_ReadMemEx(0x48000824, 0x0004 Bytes, ..., AccessWidth = 33554436) -- CPU is running -- CPU_ReadMem(4 bytes @ 0x48000824) - Data: 00 00 00 00  returns 0x04 (0000ms, 19157ms total)
T2374 1701:461 JLINK_ReadMemEx(0x4800083C, 0x0004 Bytes, ..., AccessWidth = 33554436) -- CPU is running -- CPU_ReadMem(4 bytes @ 0x4800083C) - Data: 00 00 00 00  returns 0x04 (0000ms, 19157ms total)
T228C 1701:473 JLINK_IsHalted()  returns FALSE (0001ms, 19158ms total)
T228C 1701:575 JLINK_IsHalted()  returns FALSE (0000ms, 19157ms total)
T228C 1701:676 JLINK_IsHalted()  returns FALSE (0000ms, 19157ms total)
T228C 1701:777 JLINK_IsHalted()  returns FALSE (0000ms, 19157ms total)
T228C 1701:878 JLINK_IsHalted()  returns FALSE (0000ms, 19157ms total)
T228C 1701:978 JLINK_ReadMemU32(0xE0001004, 0x0001 Items, ...) -- CPU is running -- CPU_ReadMem(4 bytes @ 0xE0001004) - Data: 82 93 E0 0A  returns 0x01 (0001ms, 19158ms total)
T2374 1701:987 JLINK_ReadMemEx(0x40000000, 0x0010 Bytes, ..., AccessWidth = 33554436) -- CPU is running -- CPU_ReadMem(16 bytes @ 0x40000000) - Data: 81 00 00 00 00 00 00 00 00 00 00 00 00 00 00 00  returns 0x10 (0001ms, 19159ms total)
T2374 1701:988 JLINK_ReadMemEx(0x40000010, 0x0004 Bytes, ..., AccessWidth = 33554436) -- CPU is running -- CPU_ReadMem(4 bytes @ 0x40000010) - Data: 1F 00 00 00  returns 0x04 (0001ms, 19160ms total)
T2374 1701:989 JLINK_ReadMemEx(0x40000018, 0x0014 Bytes, ..., AccessWidth = 33554436) -- CPU is running -- CPU_ReadMem(20 bytes @ 0x40000018) - Data: 00 70 00 00 00 00 00 00 10 00 00 00 3D 00 00 00 ...  returns 0x14 (0000ms, 19160ms total)
